
T157C 000:887 SEGGER J-Link V4.15n (beta) Log File (0001ms, 0886ms total)
T157C 000:887 DLL Compiled: Jun 18 2010 19:55:09 (0001ms, 0886ms total)
T157C 000:887 Logging started @ 2016-09-17 12:13 (0001ms, 0886ms total)
T157C 000:888 JLINK_SetWarnOutHandler(...) (0000ms, 0887ms total)
T157C 000:888 JLINK_OpenEx(...)
Firmware: J-Link ARM V8 compiled Feb  8 2012 14:30:39
Hardware: V8.00
S/N: 20100214
Feature(s): RDI,FlashDL,FlashBP,JFlash,GDBFull  returns O.K. (0255ms, 0887ms total)
T157C 001:143 JLINK_SetErrorOutHandler(...) (0000ms, 1142ms total)
T157C 001:143 JLINK_ExecCommand("ProjectFile = "D:\PRD\STM32F103C8T6\project\JLinkSettings.ini"", ...)  returns 0x00 (0004ms, 1142ms total)
T157C 001:154 JLINK_ExecCommand("DisableConnectionTimeout", ...)  returns 0x00 (0000ms, 1146ms total)
T157C 001:154 JLINK_TIF_Select(JLINKARM_TIF_JTAG)  returns 0x00 (0000ms, 1146ms total)
T157C 001:154 JLINK_SetSpeed(2000) (0000ms, 1146ms total)
T157C 001:154 JLINK_GetHardwareVersion()  returns 0x13880 (0000ms, 1146ms total)
T157C 001:154 JLINK_GetDLLVersion()  returns 41514 (0000ms, 1146ms total)
T157C 001:154 JLINK_GetFirmwareString(...) (0000ms, 1146ms total)
T157C 001:172 JLINK_GetDLLVersion()  returns 41514 (0000ms, 1146ms total)
T157C 001:172 JLINK_GetCompileDateTime() (0000ms, 1146ms total)
T157C 001:174 JLINK_GetFirmwareString(...) (0000ms, 1146ms total)
T157C 001:176 JLINK_GetHardwareVersion()  returns 0x13880 (0000ms, 1146ms total)
T157C 001:185 JLINK_Reset() >0x2F8 JTAG>TotalIRLen = 9, IRPrint = 0x0011 >0x30 JTAG> >0x210 JTAG> >0x118 JTAG> >0xD8 JTAG> >0x198 JTAG> >0x38 JTAG> >0x118 JTAG> >0xD8 JTAG> >0x2F0 JTAG> >0x2F0 JTAG> >0x198 JTAG> >0x198 JTAG>Found Cortex-M3 r1p1, Little endian. >0xD8 JTAG> >0x240 JTAG> >0x198 JTAG> >0x240 JTAG> >0x198 JTAG>TPIU fitted. >0x198 JTAG> >0x198 JTAG>  FPUnit: 6 code (BP) slots and 2 literal slots >0x198 JTAG> >0x250 JTAG> >0x240 JTAG> >0x280 JTAG> >0x198 JTAG> >0x198 JTAG> >0x240 JTAG>
 >0x240 JTAG> >0x198 JTAG> >0x198 JTAG> >0x17A8 JTAG> >0x240 JTAG> >0x198 JTAG> >0x17A8 JTAG> >0x198 JTAG> -- CPU_WriteMem(4 bytes @ 0xE000EDFC) -- CPU_WriteMem(4 bytes @ 0xE0001028) -- CPU_WriteMem(4 bytes @ 0xE0001038) -- CPU_WriteMem(4 bytes @ 0xE0001048) -- CPU_WriteMem(4 bytes @ 0xE0001058) (0062ms, 1146ms total)
T157C 001:247 JLINK_GetIdData(...) ScanLen=9 NumDevices=2 aId[0]=0x3BA00477 aIrRead[0]=0 aScanLen[0]=0 aScanRead[0]=0 (0000ms, 1208ms total)
T157C 001:247 JLINK_JTAG_GetDeviceID(DeviceIndex = 0)  returns 0x3BA00477 (0000ms, 1208ms total)
T157C 001:247 JLINK_JTAG_GetDeviceInfo(DeviceIndex = 0)  returns 0x00 (0000ms, 1208ms total)
T157C 001:247 JLINK_JTAG_GetDeviceID(DeviceIndex = 1)  returns 0x16410041 (0000ms, 1208ms total)
T157C 001:247 JLINK_JTAG_GetDeviceInfo(DeviceIndex = 1)  returns 0x00 (0000ms, 1208ms total)
T157C 001:247 JLINK_GetDebugInfo(0x100) -- Value=0xE00FF003  returns 0x00 (0000ms, 1208ms total)
T157C 001:249 JLINK_ReadMem (0xE00FF000, 0x0018 Bytes, ...) -- CPU_ReadMem(24 bytes @ 0xE00FF000) -- Data:  03 F0 F0 FF 03 20 F0 FF 03 30 F0 FF 03 10 F0 FF ...  returns 0x00 (0001ms, 1208ms total)
T157C 001:250 JLINK_ReadMemU32(0xE000ED00, 0x0001 Items, ...) -- CPU_ReadMem(4 bytes @ 0xE000ED00) -- Data:  31 C2 1F 41  returns 0x01 (0000ms, 1209ms total)
T157C 001:253 JLINK_Halt()  returns 0x00 (0000ms, 1209ms total)
T157C 001:253 JLINK_IsHalted()  returns TRUE (0000ms, 1209ms total)
T157C 001:253 JLINK_ReadMemU32(0xE000EDF0, 0x0001 Items, ...) -- CPU_ReadMem(4 bytes @ 0xE000EDF0) -- Data:  03 00 03 00  returns 0x01 (0001ms, 1209ms total)
T157C 001:254 JLINK_WriteU32(0xE000EDF0, 0xA05F0003) -- CPU_WriteMem(4 bytes @ 0xE000EDF0)  returns 0x00 (0000ms, 1210ms total)
T157C 001:254 JLINK_WriteU32(0xE000EDFC, 0x01000000) -- CPU_WriteMem(4 bytes @ 0xE000EDFC)  returns 0x00 (0001ms, 1210ms total)
T157C 001:255 JLINK_ReadMemU32(0xE0002000, 0x0001 Items, ...) -- CPU_ReadMem(4 bytes @ 0xE0002000) -- Data:  60 02 00 00  returns 0x01 (0000ms, 1211ms total)
T157C 001:255 JLINK_ReadMemU32(0xE0001000, 0x0001 Items, ...) -- CPU_ReadMem(4 bytes @ 0xE0001000) -- Data:  00 00 00 40  returns 0x01 (0001ms, 1211ms total)
T157C 001:264 JLINK_ExecCommand("Device = STM32F103C8", ...)
                JLINK_ExecCommand("map ram 0x20000000 - 0x20004FFF", ...)  returns 0x00 (0000ms, 0000ms total)
                JLINK_AddMirrorAreaEx(Addr = 0x00000000, Size = 0x00000000) (0000ms, 0000ms total)
                returns 0x00 (0000ms, 1212ms total)
T157C 001:264 JLINK_GetHWStatus(...)  returns 0x00 (0001ms, 1212ms total)
T157C 001:273 JLINK_GetNumBPUnits(Type = 0xFFFFFF00) >0x2F8 JTAG>TotalIRLen = 9, IRPrint = 0x0011 >0x30 JTAG> >0x210 JTAG> >0x118 JTAG> >0xD8 JTAG> >0x198 JTAG> >0x38 JTAG> >0x118 JTAG> >0xD8 JTAG> >0x2F0 JTAG> >0x2F0 JTAG> >0x198 JTAG> >0x198 JTAG>Found Cortex-M3 r1p1, Little endian. >0xD8 JTAG> >0x240 JTAG> >0x198 JTAG> >0x198 JTAG>TPIU fitted. >0x198 JTAG> >0x198 JTAG>  FPUnit: 6 code (BP) slots and 2 literal slots >0x198 JTAG>  returns 0x06 (0024ms, 1213ms total)
T157C 001:297 JLINK_GetNumBPUnits(Type = 0xF0)  returns 0x800 (0000ms, 1237ms total)
T157C 001:297 JLINK_GetNumWPUnits()  returns 0x04 (0000ms, 1237ms total)
T157C 001:304 JLINK_GetSpeed()  returns 0x7D0 (0000ms, 1237ms total)
T157C 001:312 JLINK_ReadMemU32(0xE000E004, 0x0001 Items, ...) -- CPU_ReadMem(4 bytes @ 0xE000E004) -- Data:  01 00 00 00  returns 0x01 (0000ms, 1237ms total)
T157C 001:312 JLINK_WriteMem(0xE0001000, 0x001C Bytes, ...) -- Data:  01 00 00 00 00 00 00 00 00 00 00 00 00 00 00 00 ... -- CPU_WriteMem(28 bytes @ 0xE0001000)  returns 0x1C (0001ms, 1237ms total)
T157C 001:313 JLINK_ReadMem (0xE0001000, 0x001C Bytes, ...) -- CPU_ReadMem(28 bytes @ 0xE0001000) -- Data:  01 00 00 40 00 00 00 00 00 00 00 00 00 00 00 00 ...  returns 0x00 (0001ms, 1238ms total)
T157C 001:318 JLINK_Halt()  returns 0x00 (0000ms, 1239ms total)
T157C 001:318 JLINK_IsHalted()  returns TRUE (0000ms, 1239ms total)
T157C 001:326 JLINK_WriteMem(0x20000000, 0x0164 Bytes, ...) -- Data:  00 BE 0A E0 0D 78 2D 06 68 40 08 24 40 00 00 D3 ... -- CPU_WriteMem(356 bytes @ 0x20000000)  returns 0x164 (0003ms, 1239ms total)
T157C 001:329 JLINK_WriteReg(R0, 0x08000000)  returns 0x00 (0000ms, 1242ms total)
T157C 001:329 JLINK_WriteReg(R1, 0x007A1200)  returns 0x00 (0000ms, 1242ms total)
T157C 001:329 JLINK_WriteReg(R2, 0x00000001)  returns 0x00 (0000ms, 1242ms total)
T157C 001:329 JLINK_WriteReg(R3, 0x00000000)  returns 0x00 (0000ms, 1242ms total)
T157C 001:329 JLINK_WriteReg(R4, 0x00000000)  returns 0x00 (0000ms, 1242ms total)
T157C 001:329 JLINK_WriteReg(R5, 0x00000000)  returns 0x00 (0000ms, 1242ms total)
T157C 001:329 JLINK_WriteReg(R6, 0x00000000)  returns 0x00 (0000ms, 1242ms total)
T157C 001:329 JLINK_WriteReg(R7, 0x00000000)  returns 0x00 (0000ms, 1242ms total)
T157C 001:329 JLINK_WriteReg(R8, 0x00000000)  returns 0x00 (0000ms, 1242ms total)
T157C 001:329 JLINK_WriteReg(R9, 0x20000160)  returns 0x00 (0000ms, 1242ms total)
T157C 001:329 JLINK_WriteReg(R10, 0x00000000)  returns 0x00 (0000ms, 1242ms total)
T157C 001:329 JLINK_WriteReg(R11, 0x00000000)  returns 0x00 (0000ms, 1242ms total)
T157C 001:329 JLINK_WriteReg(R12, 0x00000000)  returns 0x00 (0000ms, 1242ms total)
T157C 001:329 JLINK_WriteReg(R13, 0x20000800)  returns 0x00 (0000ms, 1242ms total)
T157C 001:329 JLINK_WriteReg(R14, 0x20000001)  returns 0x00 (0000ms, 1242ms total)
T157C 001:329 JLINK_WriteReg(R15, 0x20000038)  returns 0x00 (0000ms, 1242ms total)
T157C 001:329 JLINK_WriteReg(XPSR, 0x01000000)  returns 0x00 (0000ms, 1242ms total)
T157C 001:329 JLINK_WriteReg(MSP, 0x20000800)  returns 0x00 (0000ms, 1242ms total)
T157C 001:329 JLINK_WriteReg(PSP, 0x20000800)  returns 0x00 (0000ms, 1242ms total)
T157C 001:329 JLINK_WriteReg(CFBP, 0x00000000)  returns 0x00 (0000ms, 1242ms total)
T157C 001:329 JLINK_SetBPEx(Addr = 0x20000000, Type = 0xFFFFFFF2) -- CPU_ReadMem(2 bytes @ 0x20000000)  returns 0x00000001 (0001ms, 1242ms total)
T157C 001:330 JLINK_Go() -- CPU_WriteMem(2 bytes @ 0x20000000) -- CPU_WriteMem(4 bytes @ 0xE0002008) -- CPU_WriteMem(4 bytes @ 0xE000200C) -- CPU_WriteMem(4 bytes @ 0xE0002010) -- CPU_WriteMem(4 bytes @ 0xE0002014) -- CPU_WriteMem(4 bytes @ 0xE0002018) -- CPU_WriteMem(4 bytes @ 0xE000201C) (0006ms, 1243ms total)
T157C 001:336 JLINK_IsHalted() -- CPU_ReadMem(2 bytes @ 0x20000000)  returns TRUE (0006ms, 1249ms total)
T157C 001:342 JLINK_ReadReg(R15)  returns 0x20000000 (0000ms, 1249ms total)
T157C 001:342 JLINK_ClrBPEx(BPHandle = 0x00000001)  returns 0x00 (0000ms, 1249ms total)
T157C 001:342 JLINK_ReadReg(R0)  returns 0x00000000 (0000ms, 1249ms total)
T157C 001:342 JLINK_WriteReg(R0, 0x08000000)  returns 0x00 (0000ms, 1249ms total)
T157C 001:342 JLINK_WriteReg(R1, 0x007A1200)  returns 0x00 (0000ms, 1249ms total)
T157C 001:342 JLINK_WriteReg(R2, 0x00000001)  returns 0x00 (0000ms, 1249ms total)
T157C 001:342 JLINK_WriteReg(R3, 0x00000000)  returns 0x00 (0000ms, 1249ms total)
T157C 001:342 JLINK_WriteReg(R4, 0x00000000)  returns 0x00 (0000ms, 1249ms total)
T157C 001:342 JLINK_WriteReg(R5, 0x00000000)  returns 0x00 (0000ms, 1249ms total)
T157C 001:342 JLINK_WriteReg(R6, 0x00000000)  returns 0x00 (0000ms, 1249ms total)
T157C 001:342 JLINK_WriteReg(R7, 0x00000000)  returns 0x00 (0000ms, 1249ms total)
T157C 001:342 JLINK_WriteReg(R8, 0x00000000)  returns 0x00 (0000ms, 1249ms total)
T157C 001:342 JLINK_WriteReg(R9, 0x20000160)  returns 0x00 (0000ms, 1249ms total)
T157C 001:342 JLINK_WriteReg(R10, 0x00000000)  returns 0x00 (0000ms, 1249ms total)
T157C 001:342 JLINK_WriteReg(R11, 0x00000000)  returns 0x00 (0000ms, 1249ms total)
T157C 001:342 JLINK_WriteReg(R12, 0x00000000)  returns 0x00 (0000ms, 1249ms total)
T157C 001:342 JLINK_WriteReg(R13, 0x20000800)  returns 0x00 (0000ms, 1249ms total)
T157C 001:342 JLINK_WriteReg(R14, 0x20000001)  returns 0x00 (0000ms, 1249ms total)
T157C 001:342 JLINK_WriteReg(R15, 0x2000007C)  returns 0x00 (0000ms, 1249ms total)
T157C 001:342 JLINK_WriteReg(XPSR, 0x01000000)  returns 0x00 (0000ms, 1249ms total)
T157C 001:342 JLINK_WriteReg(MSP, 0x20000800)  returns 0x00 (0000ms, 1249ms total)
T157C 001:342 JLINK_WriteReg(PSP, 0x20000800)  returns 0x00 (0000ms, 1249ms total)
T157C 001:342 JLINK_WriteReg(CFBP, 0x00000000)  returns 0x00 (0000ms, 1249ms total)
T157C 001:342 JLINK_SetBPEx(Addr = 0x20000000, Type = 0xFFFFFFF2)  returns 0x00000002 (0000ms, 1249ms total)
T157C 001:342 JLINK_Go() -- CPU_WriteMem(4 bytes @ 0xE0002008) -- CPU_WriteMem(4 bytes @ 0xE000200C) -- CPU_WriteMem(4 bytes @ 0xE0002010) -- CPU_WriteMem(4 bytes @ 0xE0002014) -- CPU_WriteMem(4 bytes @ 0xE0002018) -- CPU_WriteMem(4 bytes @ 0xE000201C) (0004ms, 1249ms total)
T157C 001:346 JLINK_IsHalted()  returns FALSE (0000ms, 1253ms total)
T157C 001:397 JLINK_IsHalted() -- CPU_ReadMem(2 bytes @ 0x20000000)  returns TRUE (0005ms, 1253ms total)
T157C 001:402 JLINK_ReadReg(R15)  returns 0x20000000 (0000ms, 1253ms total)
T157C 001:402 JLINK_ClrBPEx(BPHandle = 0x00000002)  returns 0x00 (0000ms, 1253ms total)
T157C 001:402 JLINK_ReadReg(R0)  returns 0x00000000 (0000ms, 1253ms total)
T157C 001:454 JLINK_WriteReg(R0, 0x00000001)  returns 0x00 (0000ms, 1253ms total)
T157C 001:454 JLINK_WriteReg(R1, 0x007A1200)  returns 0x00 (0000ms, 1253ms total)
T157C 001:454 JLINK_WriteReg(R2, 0x00000001)  returns 0x00 (0000ms, 1253ms total)
T157C 001:454 JLINK_WriteReg(R3, 0x00000000)  returns 0x00 (0000ms, 1253ms total)
T157C 001:454 JLINK_WriteReg(R4, 0x00000000)  returns 0x00 (0000ms, 1253ms total)
T157C 001:454 JLINK_WriteReg(R5, 0x00000000)  returns 0x00 (0000ms, 1253ms total)
T157C 001:454 JLINK_WriteReg(R6, 0x00000000)  returns 0x00 (0000ms, 1253ms total)
T157C 001:454 JLINK_WriteReg(R7, 0x00000000)  returns 0x00 (0000ms, 1253ms total)
T157C 001:454 JLINK_WriteReg(R8, 0x00000000)  returns 0x00 (0000ms, 1253ms total)
T157C 001:454 JLINK_WriteReg(R9, 0x20000160)  returns 0x00 (0000ms, 1253ms total)
T157C 001:455 JLINK_WriteReg(R10, 0x00000000)  returns 0x00 (0000ms, 1254ms total)
T157C 001:455 JLINK_WriteReg(R11, 0x00000000)  returns 0x00 (0000ms, 1254ms total)
T157C 001:455 JLINK_WriteReg(R12, 0x00000000)  returns 0x00 (0000ms, 1254ms total)
T157C 001:455 JLINK_WriteReg(R13, 0x20000800)  returns 0x00 (0000ms, 1254ms total)
T157C 001:455 JLINK_WriteReg(R14, 0x20000001)  returns 0x00 (0000ms, 1254ms total)
T157C 001:455 JLINK_WriteReg(R15, 0x2000006A)  returns 0x00 (0000ms, 1254ms total)
T157C 001:455 JLINK_WriteReg(XPSR, 0x01000000)  returns 0x00 (0000ms, 1254ms total)
T157C 001:455 JLINK_WriteReg(MSP, 0x20000800)  returns 0x00 (0000ms, 1254ms total)
T157C 001:455 JLINK_WriteReg(PSP, 0x20000800)  returns 0x00 (0000ms, 1254ms total)
T157C 001:455 JLINK_WriteReg(CFBP, 0x00000000)  returns 0x00 (0000ms, 1254ms total)
T157C 001:455 JLINK_SetBPEx(Addr = 0x20000000, Type = 0xFFFFFFF2)  returns 0x00000003 (0000ms, 1254ms total)
T157C 001:455 JLINK_Go() -- CPU_WriteMem(4 bytes @ 0xE0002008) -- CPU_WriteMem(4 bytes @ 0xE000200C) -- CPU_WriteMem(4 bytes @ 0xE0002010) -- CPU_WriteMem(4 bytes @ 0xE0002014) -- CPU_WriteMem(4 bytes @ 0xE0002018) -- CPU_WriteMem(4 bytes @ 0xE000201C) (0004ms, 1254ms total)
T157C 001:459 JLINK_IsHalted() -- CPU_ReadMem(2 bytes @ 0x20000000)  returns TRUE (0005ms, 1258ms total)
T157C 001:464 JLINK_ReadReg(R15)  returns 0x20000000 (0000ms, 1258ms total)
T157C 001:464 JLINK_ClrBPEx(BPHandle = 0x00000003)  returns 0x00 (0000ms, 1258ms total)
T157C 001:464 JLINK_ReadReg(R0)  returns 0x00000000 (0000ms, 1258ms total)
T157C 001:468 JLINK_WriteMem(0x20000000, 0x0164 Bytes, ...) -- Data:  00 BE 0A E0 0D 78 2D 06 68 40 08 24 40 00 00 D3 ... -- CPU_WriteMem(356 bytes @ 0x20000000)  returns 0x164 (0003ms, 1258ms total)
T157C 001:471 JLINK_WriteReg(R0, 0x08000000)  returns 0x00 (0000ms, 1261ms total)
T157C 001:471 JLINK_WriteReg(R1, 0x007A1200)  returns 0x00 (0000ms, 1261ms total)
T157C 001:471 JLINK_WriteReg(R2, 0x00000002)  returns 0x00 (0000ms, 1261ms total)
T157C 001:471 JLINK_WriteReg(R3, 0x00000000)  returns 0x00 (0000ms, 1261ms total)
T157C 001:471 JLINK_WriteReg(R4, 0x00000000)  returns 0x00 (0000ms, 1261ms total)
T157C 001:471 JLINK_WriteReg(R5, 0x00000000)  returns 0x00 (0000ms, 1261ms total)
T157C 001:471 JLINK_WriteReg(R6, 0x00000000)  returns 0x00 (0000ms, 1261ms total)
T157C 001:471 JLINK_WriteReg(R7, 0x00000000)  returns 0x00 (0000ms, 1261ms total)
T157C 001:471 JLINK_WriteReg(R8, 0x00000000)  returns 0x00 (0000ms, 1261ms total)
T157C 001:471 JLINK_WriteReg(R9, 0x20000160)  returns 0x00 (0000ms, 1261ms total)
T157C 001:471 JLINK_WriteReg(R10, 0x00000000)  returns 0x00 (0000ms, 1261ms total)
T157C 001:471 JLINK_WriteReg(R11, 0x00000000)  returns 0x00 (0000ms, 1261ms total)
T157C 001:471 JLINK_WriteReg(R12, 0x00000000)  returns 0x00 (0000ms, 1261ms total)
T157C 001:471 JLINK_WriteReg(R13, 0x20000800)  returns 0x00 (0000ms, 1261ms total)
T157C 001:471 JLINK_WriteReg(R14, 0x20000001)  returns 0x00 (0000ms, 1261ms total)
T157C 001:471 JLINK_WriteReg(R15, 0x20000038)  returns 0x00 (0000ms, 1261ms total)
T157C 001:471 JLINK_WriteReg(XPSR, 0x01000000)  returns 0x00 (0000ms, 1261ms total)
T157C 001:471 JLINK_WriteReg(MSP, 0x20000800)  returns 0x00 (0000ms, 1261ms total)
T157C 001:471 JLINK_WriteReg(PSP, 0x20000800)  returns 0x00 (0000ms, 1261ms total)
T157C 001:471 JLINK_WriteReg(CFBP, 0x00000000)  returns 0x00 (0001ms, 1261ms total)
T157C 001:472 JLINK_SetBPEx(Addr = 0x20000000, Type = 0xFFFFFFF2) -- CPU_ReadMem(2 bytes @ 0x20000000)  returns 0x00000004 (0000ms, 1262ms total)
T157C 001:472 JLINK_Go() -- CPU_WriteMem(2 bytes @ 0x20000000) -- CPU_WriteMem(4 bytes @ 0xE0002008) -- CPU_WriteMem(4 bytes @ 0xE000200C) -- CPU_WriteMem(4 bytes @ 0xE0002010) -- CPU_WriteMem(4 bytes @ 0xE0002014) -- CPU_WriteMem(4 bytes @ 0xE0002018) -- CPU_WriteMem(4 bytes @ 0xE000201C) (0005ms, 1262ms total)
T157C 001:477 JLINK_IsHalted() -- CPU_ReadMem(2 bytes @ 0x20000000)  returns TRUE (0006ms, 1267ms total)
T157C 001:483 JLINK_ReadReg(R15)  returns 0x20000000 (0000ms, 1267ms total)
T157C 001:483 JLINK_ClrBPEx(BPHandle = 0x00000004)  returns 0x00 (0000ms, 1267ms total)
T157C 001:483 JLINK_ReadReg(R0)  returns 0x00000000 (0000ms, 1267ms total)
T157C 001:483 JLINK_WriteMem(0x20000164, 0x0400 Bytes, ...) -- Data:  D0 12 00 20 A1 30 00 08 59 01 00 08 5B 01 00 08 ... -- CPU_WriteMem(1024 bytes @ 0x20000164)  returns 0x400 (0007ms, 1267ms total)
T157C 001:490 JLINK_WriteReg(R0, 0x08000000)  returns 0x00 (0000ms, 1274ms total)
T157C 001:490 JLINK_WriteReg(R1, 0x00000400)  returns 0x00 (0000ms, 1274ms total)
T157C 001:490 JLINK_WriteReg(R2, 0x20000164)  returns 0x00 (0000ms, 1274ms total)
T157C 001:490 JLINK_WriteReg(R3, 0x00000000)  returns 0x00 (0000ms, 1274ms total)
T157C 001:490 JLINK_WriteReg(R4, 0x00000000)  returns 0x00 (0000ms, 1274ms total)
T157C 001:490 JLINK_WriteReg(R5, 0x00000000)  returns 0x00 (0000ms, 1274ms total)
T157C 001:490 JLINK_WriteReg(R6, 0x00000000)  returns 0x00 (0000ms, 1274ms total)
T157C 001:490 JLINK_WriteReg(R7, 0x00000000)  returns 0x00 (0000ms, 1274ms total)
T157C 001:490 JLINK_WriteReg(R8, 0x00000000)  returns 0x00 (0000ms, 1274ms total)
T157C 001:490 JLINK_WriteReg(R9, 0x20000160)  returns 0x00 (0000ms, 1274ms total)
T157C 001:490 JLINK_WriteReg(R10, 0x00000000)  returns 0x00 (0000ms, 1274ms total)
T157C 001:490 JLINK_WriteReg(R11, 0x00000000)  returns 0x00 (0000ms, 1274ms total)
T157C 001:490 JLINK_WriteReg(R12, 0x00000000)  returns 0x00 (0000ms, 1274ms total)
T157C 001:490 JLINK_WriteReg(R13, 0x20000800)  returns 0x00 (0000ms, 1274ms total)
T157C 001:490 JLINK_WriteReg(R14, 0x20000001)  returns 0x00 (0000ms, 1274ms total)
T157C 001:490 JLINK_WriteReg(R15, 0x200000F4)  returns 0x00 (0000ms, 1274ms total)
T157C 001:490 JLINK_WriteReg(XPSR, 0x01000000)  returns 0x00 (0000ms, 1274ms total)
T157C 001:490 JLINK_WriteReg(MSP, 0x20000800)  returns 0x00 (0000ms, 1274ms total)
T157C 001:490 JLINK_WriteReg(PSP, 0x20000800)  returns 0x00 (0000ms, 1274ms total)
T157C 001:490 JLINK_WriteReg(CFBP, 0x00000000)  returns 0x00 (0000ms, 1274ms total)
T157C 001:490 JLINK_SetBPEx(Addr = 0x20000000, Type = 0xFFFFFFF2)  returns 0x00000005 (0000ms, 1274ms total)
T157C 001:490 JLINK_Go() -- CPU_WriteMem(4 bytes @ 0xE0002008) -- CPU_WriteMem(4 bytes @ 0xE000200C) -- CPU_WriteMem(4 bytes @ 0xE0002010) -- CPU_WriteMem(4 bytes @ 0xE0002014) -- CPU_WriteMem(4 bytes @ 0xE0002018) -- CPU_WriteMem(4 bytes @ 0xE000201C) (0004ms, 1274ms total)
T157C 001:494 JLINK_IsHalted()  returns FALSE (0001ms, 1278ms total)
T157C 001:545 JLINK_IsHalted() -- CPU_ReadMem(2 bytes @ 0x20000000)  returns TRUE (0005ms, 1278ms total)
T157C 001:550 JLINK_ReadReg(R15)  returns 0x20000000 (0000ms, 1278ms total)
T157C 001:550 JLINK_ClrBPEx(BPHandle = 0x00000005)  returns 0x00 (0000ms, 1278ms total)
T157C 001:550 JLINK_ReadReg(R0)  returns 0x00000000 (0000ms, 1278ms total)
T157C 001:551 JLINK_WriteMem(0x20000164, 0x0400 Bytes, ...) -- Data:  7D 48 03 F0 63 FF 7D 48 01 90 7D 48 02 90 00 20 ... -- CPU_WriteMem(1024 bytes @ 0x20000164)  returns 0x400 (0006ms, 1278ms total)
T157C 001:557 JLINK_WriteReg(R0, 0x08000400)  returns 0x00 (0000ms, 1284ms total)
T157C 001:557 JLINK_WriteReg(R1, 0x00000400)  returns 0x00 (0000ms, 1284ms total)
T157C 001:557 JLINK_WriteReg(R2, 0x20000164)  returns 0x00 (0000ms, 1284ms total)
T157C 001:557 JLINK_WriteReg(R3, 0x00000000)  returns 0x00 (0000ms, 1284ms total)
T157C 001:557 JLINK_WriteReg(R4, 0x00000000)  returns 0x00 (0000ms, 1284ms total)
T157C 001:557 JLINK_WriteReg(R5, 0x00000000)  returns 0x00 (0000ms, 1284ms total)
T157C 001:557 JLINK_WriteReg(R6, 0x00000000)  returns 0x00 (0000ms, 1284ms total)
T157C 001:557 JLINK_WriteReg(R7, 0x00000000)  returns 0x00 (0000ms, 1284ms total)
T157C 001:557 JLINK_WriteReg(R8, 0x00000000)  returns 0x00 (0000ms, 1284ms total)
T157C 001:557 JLINK_WriteReg(R9, 0x20000160)  returns 0x00 (0000ms, 1284ms total)
T157C 001:557 JLINK_WriteReg(R10, 0x00000000)  returns 0x00 (0000ms, 1284ms total)
T157C 001:557 JLINK_WriteReg(R11, 0x00000000)  returns 0x00 (0000ms, 1284ms total)
T157C 001:557 JLINK_WriteReg(R12, 0x00000000)  returns 0x00 (0000ms, 1284ms total)
T157C 001:557 JLINK_WriteReg(R13, 0x20000800)  returns 0x00 (0000ms, 1284ms total)
T157C 001:557 JLINK_WriteReg(R14, 0x20000001)  returns 0x00 (0000ms, 1284ms total)
T157C 001:557 JLINK_WriteReg(R15, 0x200000F4)  returns 0x00 (0001ms, 1284ms total)
T157C 001:558 JLINK_WriteReg(XPSR, 0x01000000)  returns 0x00 (0000ms, 1285ms total)
T157C 001:558 JLINK_WriteReg(MSP, 0x20000800)  returns 0x00 (0000ms, 1285ms total)
T157C 001:558 JLINK_WriteReg(PSP, 0x20000800)  returns 0x00 (0000ms, 1285ms total)
T157C 001:558 JLINK_WriteReg(CFBP, 0x00000000)  returns 0x00 (0000ms, 1285ms total)
T157C 001:558 JLINK_SetBPEx(Addr = 0x20000000, Type = 0xFFFFFFF2)  returns 0x00000006 (0000ms, 1285ms total)
T157C 001:558 JLINK_Go() -- CPU_WriteMem(4 bytes @ 0xE0002008) -- CPU_WriteMem(4 bytes @ 0xE000200C) -- CPU_WriteMem(4 bytes @ 0xE0002010) -- CPU_WriteMem(4 bytes @ 0xE0002014) -- CPU_WriteMem(4 bytes @ 0xE0002018) -- CPU_WriteMem(4 bytes @ 0xE000201C) (0004ms, 1285ms total)
T157C 001:562 JLINK_IsHalted()  returns FALSE (0001ms, 1289ms total)
T157C 001:614 JLINK_IsHalted() -- CPU_ReadMem(2 bytes @ 0x20000000)  returns TRUE (0005ms, 1289ms total)
T157C 001:619 JLINK_ReadReg(R15)  returns 0x20000000 (0000ms, 1289ms total)
T157C 001:619 JLINK_ClrBPEx(BPHandle = 0x00000006)  returns 0x00 (0000ms, 1289ms total)
T157C 001:619 JLINK_ReadReg(R0)  returns 0x00000000 (0000ms, 1289ms total)
T157C 001:620 JLINK_WriteMem(0x20000164, 0x0400 Bytes, ...) -- Data:  04 F1 0B 02 69 46 F2 A0 07 F0 20 FE 02 E0 F6 A0 ... -- CPU_WriteMem(1024 bytes @ 0x20000164)  returns 0x400 (0006ms, 1289ms total)
T157C 001:626 JLINK_WriteReg(R0, 0x08000800)  returns 0x00 (0000ms, 1295ms total)
T157C 001:626 JLINK_WriteReg(R1, 0x00000400)  returns 0x00 (0000ms, 1295ms total)
T157C 001:626 JLINK_WriteReg(R2, 0x20000164)  returns 0x00 (0000ms, 1295ms total)
T157C 001:626 JLINK_WriteReg(R3, 0x00000000)  returns 0x00 (0000ms, 1295ms total)
T157C 001:627 JLINK_WriteReg(R4, 0x00000000)  returns 0x00 (0000ms, 1296ms total)
T157C 001:627 JLINK_WriteReg(R5, 0x00000000)  returns 0x00 (0000ms, 1296ms total)
T157C 001:627 JLINK_WriteReg(R6, 0x00000000)  returns 0x00 (0000ms, 1296ms total)
T157C 001:627 JLINK_WriteReg(R7, 0x00000000)  returns 0x00 (0000ms, 1296ms total)
T157C 001:627 JLINK_WriteReg(R8, 0x00000000)  returns 0x00 (0000ms, 1296ms total)
T157C 001:627 JLINK_WriteReg(R9, 0x20000160)  returns 0x00 (0000ms, 1296ms total)
T157C 001:627 JLINK_WriteReg(R10, 0x00000000)  returns 0x00 (0000ms, 1296ms total)
T157C 001:627 JLINK_WriteReg(R11, 0x00000000)  returns 0x00 (0000ms, 1296ms total)
T157C 001:627 JLINK_WriteReg(R12, 0x00000000)  returns 0x00 (0000ms, 1296ms total)
T157C 001:627 JLINK_WriteReg(R13, 0x20000800)  returns 0x00 (0000ms, 1296ms total)
T157C 001:627 JLINK_WriteReg(R14, 0x20000001)  returns 0x00 (0000ms, 1296ms total)
T157C 001:627 JLINK_WriteReg(R15, 0x200000F4)  returns 0x00 (0000ms, 1296ms total)
T157C 001:627 JLINK_WriteReg(XPSR, 0x01000000)  returns 0x00 (0000ms, 1296ms total)
T157C 001:627 JLINK_WriteReg(MSP, 0x20000800)  returns 0x00 (0000ms, 1296ms total)
T157C 001:627 JLINK_WriteReg(PSP, 0x20000800)  returns 0x00 (0000ms, 1296ms total)
T157C 001:627 JLINK_WriteReg(CFBP, 0x00000000)  returns 0x00 (0000ms, 1296ms total)
T157C 001:627 JLINK_SetBPEx(Addr = 0x20000000, Type = 0xFFFFFFF2)  returns 0x00000007 (0000ms, 1296ms total)
T157C 001:627 JLINK_Go() -- CPU_WriteMem(4 bytes @ 0xE0002008) -- CPU_WriteMem(4 bytes @ 0xE000200C) -- CPU_WriteMem(4 bytes @ 0xE0002010) -- CPU_WriteMem(4 bytes @ 0xE0002014) -- CPU_WriteMem(4 bytes @ 0xE0002018) -- CPU_WriteMem(4 bytes @ 0xE000201C) (0005ms, 1296ms total)
T157C 001:632 JLINK_IsHalted()  returns FALSE (0000ms, 1301ms total)
T157C 001:683 JLINK_IsHalted() -- CPU_ReadMem(2 bytes @ 0x20000000)  returns TRUE (0006ms, 1301ms total)
T157C 001:689 JLINK_ReadReg(R15)  returns 0x20000000 (0000ms, 1301ms total)
T157C 001:689 JLINK_ClrBPEx(BPHandle = 0x00000007)  returns 0x00 (0000ms, 1301ms total)
T157C 001:689 JLINK_ReadReg(R0)  returns 0x00000000 (0000ms, 1301ms total)
T157C 001:690 JLINK_WriteMem(0x20000164, 0x0400 Bytes, ...) -- Data:  04 02 00 20 0C 04 00 20 1D 04 00 20 00 38 01 40 ... -- CPU_WriteMem(1024 bytes @ 0x20000164)  returns 0x400 (0006ms, 1301ms total)
T157C 001:696 JLINK_WriteReg(R0, 0x08000C00)  returns 0x00 (0000ms, 1307ms total)
T157C 001:696 JLINK_WriteReg(R1, 0x00000400)  returns 0x00 (0000ms, 1307ms total)
T157C 001:696 JLINK_WriteReg(R2, 0x20000164)  returns 0x00 (0000ms, 1307ms total)
T157C 001:696 JLINK_WriteReg(R3, 0x00000000)  returns 0x00 (0000ms, 1307ms total)
T157C 001:696 JLINK_WriteReg(R4, 0x00000000)  returns 0x00 (0001ms, 1307ms total)
T157C 001:697 JLINK_WriteReg(R5, 0x00000000)  returns 0x00 (0000ms, 1308ms total)
T157C 001:697 JLINK_WriteReg(R6, 0x00000000)  returns 0x00 (0000ms, 1308ms total)
T157C 001:697 JLINK_WriteReg(R7, 0x00000000)  returns 0x00 (0000ms, 1308ms total)
T157C 001:697 JLINK_WriteReg(R8, 0x00000000)  returns 0x00 (0000ms, 1308ms total)
T157C 001:697 JLINK_WriteReg(R9, 0x20000160)  returns 0x00 (0000ms, 1308ms total)
T157C 001:697 JLINK_WriteReg(R10, 0x00000000)  returns 0x00 (0000ms, 1308ms total)
T157C 001:697 JLINK_WriteReg(R11, 0x00000000)  returns 0x00 (0000ms, 1308ms total)
T157C 001:697 JLINK_WriteReg(R12, 0x00000000)  returns 0x00 (0000ms, 1308ms total)
T157C 001:697 JLINK_WriteReg(R13, 0x20000800)  returns 0x00 (0000ms, 1308ms total)
T157C 001:697 JLINK_WriteReg(R14, 0x20000001)  returns 0x00 (0000ms, 1308ms total)
T157C 001:697 JLINK_WriteReg(R15, 0x200000F4)  returns 0x00 (0000ms, 1308ms total)
T157C 001:697 JLINK_WriteReg(XPSR, 0x01000000)  returns 0x00 (0000ms, 1308ms total)
T157C 001:697 JLINK_WriteReg(MSP, 0x20000800)  returns 0x00 (0000ms, 1308ms total)
T157C 001:697 JLINK_WriteReg(PSP, 0x20000800)  returns 0x00 (0000ms, 1308ms total)
T157C 001:697 JLINK_WriteReg(CFBP, 0x00000000)  returns 0x00 (0000ms, 1308ms total)
T157C 001:697 JLINK_SetBPEx(Addr = 0x20000000, Type = 0xFFFFFFF2)  returns 0x00000008 (0000ms, 1308ms total)
T157C 001:697 JLINK_Go() -- CPU_WriteMem(4 bytes @ 0xE0002008) -- CPU_WriteMem(4 bytes @ 0xE000200C) -- CPU_WriteMem(4 bytes @ 0xE0002010) -- CPU_WriteMem(4 bytes @ 0xE0002014) -- CPU_WriteMem(4 bytes @ 0xE0002018) -- CPU_WriteMem(4 bytes @ 0xE000201C) (0006ms, 1308ms total)
T157C 001:703 JLINK_IsHalted()  returns FALSE (0000ms, 1314ms total)
T157C 001:754 JLINK_IsHalted() -- CPU_ReadMem(2 bytes @ 0x20000000)  returns TRUE (0006ms, 1314ms total)
T157C 001:760 JLINK_ReadReg(R15)  returns 0x20000000 (0000ms, 1314ms total)
T157C 001:760 JLINK_ClrBPEx(BPHandle = 0x00000008)  returns 0x00 (0000ms, 1314ms total)
T157C 001:760 JLINK_ReadReg(R0)  returns 0x00000000 (0000ms, 1314ms total)
T157C 001:761 JLINK_WriteMem(0x20000164, 0x0400 Bytes, ...) -- Data:  15 B9 FF F7 A6 FF 01 E0 FF F7 9D FF 36 E0 49 46 ... -- CPU_WriteMem(1024 bytes @ 0x20000164)  returns 0x400 (0006ms, 1314ms total)
T157C 001:767 JLINK_WriteReg(R0, 0x08001000)  returns 0x00 (0000ms, 1320ms total)
T157C 001:767 JLINK_WriteReg(R1, 0x00000400)  returns 0x00 (0000ms, 1320ms total)
T157C 001:768 JLINK_WriteReg(R2, 0x20000164)  returns 0x00 (0000ms, 1321ms total)
T157C 001:768 JLINK_WriteReg(R3, 0x00000000)  returns 0x00 (0000ms, 1321ms total)
T157C 001:768 JLINK_WriteReg(R4, 0x00000000)  returns 0x00 (0000ms, 1321ms total)
T157C 001:768 JLINK_WriteReg(R5, 0x00000000)  returns 0x00 (0000ms, 1321ms total)
T157C 001:768 JLINK_WriteReg(R6, 0x00000000)  returns 0x00 (0000ms, 1321ms total)
T157C 001:768 JLINK_WriteReg(R7, 0x00000000)  returns 0x00 (0000ms, 1321ms total)
T157C 001:768 JLINK_WriteReg(R8, 0x00000000)  returns 0x00 (0000ms, 1321ms total)
T157C 001:768 JLINK_WriteReg(R9, 0x20000160)  returns 0x00 (0000ms, 1321ms total)
T157C 001:768 JLINK_WriteReg(R10, 0x00000000)  returns 0x00 (0000ms, 1321ms total)
T157C 001:768 JLINK_WriteReg(R11, 0x00000000)  returns 0x00 (0000ms, 1321ms total)
T157C 001:768 JLINK_WriteReg(R12, 0x00000000)  returns 0x00 (0000ms, 1321ms total)
T157C 001:768 JLINK_WriteReg(R13, 0x20000800)  returns 0x00 (0000ms, 1321ms total)
T157C 001:768 JLINK_WriteReg(R14, 0x20000001)  returns 0x00 (0000ms, 1321ms total)
T157C 001:768 JLINK_WriteReg(R15, 0x200000F4)  returns 0x00 (0000ms, 1321ms total)
T157C 001:768 JLINK_WriteReg(XPSR, 0x01000000)  returns 0x00 (0000ms, 1321ms total)
T157C 001:768 JLINK_WriteReg(MSP, 0x20000800)  returns 0x00 (0000ms, 1321ms total)
T157C 001:768 JLINK_WriteReg(PSP, 0x20000800)  returns 0x00 (0000ms, 1321ms total)
T157C 001:768 JLINK_WriteReg(CFBP, 0x00000000)  returns 0x00 (0000ms, 1321ms total)
T157C 001:768 JLINK_SetBPEx(Addr = 0x20000000, Type = 0xFFFFFFF2)  returns 0x00000009 (0000ms, 1321ms total)
T157C 001:768 JLINK_Go() -- CPU_WriteMem(4 bytes @ 0xE0002008) -- CPU_WriteMem(4 bytes @ 0xE000200C) -- CPU_WriteMem(4 bytes @ 0xE0002010) -- CPU_WriteMem(4 bytes @ 0xE0002014) -- CPU_WriteMem(4 bytes @ 0xE0002018) -- CPU_WriteMem(4 bytes @ 0xE000201C) (0005ms, 1321ms total)
T157C 001:773 JLINK_IsHalted()  returns FALSE (0001ms, 1326ms total)
T157C 001:825 JLINK_IsHalted() -- CPU_ReadMem(2 bytes @ 0x20000000)  returns TRUE (0005ms, 1326ms total)
T157C 001:830 JLINK_ReadReg(R15)  returns 0x20000000 (0000ms, 1326ms total)
T157C 001:830 JLINK_ClrBPEx(BPHandle = 0x00000009)  returns 0x00 (0001ms, 1326ms total)
T157C 001:831 JLINK_ReadReg(R0)  returns 0x00000000 (0000ms, 1327ms total)
T157C 001:831 JLINK_WriteMem(0x20000164, 0x0400 Bytes, ...) -- Data:  B0 47 9D F8 13 30 9D F8 12 20 CD E9 00 23 9D F8 ... -- CPU_WriteMem(1024 bytes @ 0x20000164)  returns 0x400 (0007ms, 1327ms total)
T157C 001:838 JLINK_WriteReg(R0, 0x08001400)  returns 0x00 (0000ms, 1334ms total)
T157C 001:838 JLINK_WriteReg(R1, 0x00000400)  returns 0x00 (0000ms, 1334ms total)
T157C 001:838 JLINK_WriteReg(R2, 0x20000164)  returns 0x00 (0000ms, 1334ms total)
T157C 001:838 JLINK_WriteReg(R3, 0x00000000)  returns 0x00 (0000ms, 1334ms total)
T157C 001:838 JLINK_WriteReg(R4, 0x00000000)  returns 0x00 (0000ms, 1334ms total)
T157C 001:838 JLINK_WriteReg(R5, 0x00000000)  returns 0x00 (0000ms, 1334ms total)
T157C 001:838 JLINK_WriteReg(R6, 0x00000000)  returns 0x00 (0000ms, 1334ms total)
T157C 001:838 JLINK_WriteReg(R7, 0x00000000)  returns 0x00 (0000ms, 1334ms total)
T157C 001:838 JLINK_WriteReg(R8, 0x00000000)  returns 0x00 (0000ms, 1334ms total)
T157C 001:839 JLINK_WriteReg(R9, 0x20000160)  returns 0x00 (0000ms, 1334ms total)
T157C 001:839 JLINK_WriteReg(R10, 0x00000000)  returns 0x00 (0000ms, 1334ms total)
T157C 001:839 JLINK_WriteReg(R11, 0x00000000)  returns 0x00 (0000ms, 1334ms total)
T157C 001:839 JLINK_WriteReg(R12, 0x00000000)  returns 0x00 (0000ms, 1334ms total)
T157C 001:839 JLINK_WriteReg(R13, 0x20000800)  returns 0x00 (0000ms, 1334ms total)
T157C 001:839 JLINK_WriteReg(R14, 0x20000001)  returns 0x00 (0000ms, 1334ms total)
T157C 001:839 JLINK_WriteReg(R15, 0x200000F4)  returns 0x00 (0000ms, 1334ms total)
T157C 001:839 JLINK_WriteReg(XPSR, 0x01000000)  returns 0x00 (0000ms, 1334ms total)
T157C 001:839 JLINK_WriteReg(MSP, 0x20000800)  returns 0x00 (0000ms, 1334ms total)
T157C 001:839 JLINK_WriteReg(PSP, 0x20000800)  returns 0x00 (0000ms, 1334ms total)
T157C 001:839 JLINK_WriteReg(CFBP, 0x00000000)  returns 0x00 (0000ms, 1334ms total)
T157C 001:839 JLINK_SetBPEx(Addr = 0x20000000, Type = 0xFFFFFFF2)  returns 0x0000000A (0000ms, 1334ms total)
T157C 001:839 JLINK_Go() -- CPU_WriteMem(4 bytes @ 0xE0002008) -- CPU_WriteMem(4 bytes @ 0xE000200C) -- CPU_WriteMem(4 bytes @ 0xE0002010) -- CPU_WriteMem(4 bytes @ 0xE0002014) -- CPU_WriteMem(4 bytes @ 0xE0002018) -- CPU_WriteMem(4 bytes @ 0xE000201C) (0006ms, 1334ms total)
T157C 001:845 JLINK_IsHalted()  returns FALSE (0000ms, 1340ms total)
T157C 001:896 JLINK_IsHalted() -- CPU_ReadMem(2 bytes @ 0x20000000)  returns TRUE (0006ms, 1340ms total)
T157C 001:902 JLINK_ReadReg(R15)  returns 0x20000000 (0000ms, 1340ms total)
T157C 001:902 JLINK_ClrBPEx(BPHandle = 0x0000000A)  returns 0x00 (0000ms, 1340ms total)
T157C 001:902 JLINK_ReadReg(R0)  returns 0x00000000 (0000ms, 1340ms total)
T157C 001:903 JLINK_WriteMem(0x20000164, 0x0400 Bytes, ...) -- Data:  69 72 6D 77 61 72 65 20 63 6F 6D 65 20 61 63 72 ... -- CPU_WriteMem(1024 bytes @ 0x20000164)  returns 0x400 (0006ms, 1340ms total)
T157C 001:910 JLINK_WriteReg(R0, 0x08001800)  returns 0x00 (0000ms, 1346ms total)
T157C 001:910 JLINK_WriteReg(R1, 0x00000400)  returns 0x00 (0000ms, 1346ms total)
T157C 001:910 JLINK_WriteReg(R2, 0x20000164)  returns 0x00 (0000ms, 1346ms total)
T157C 001:910 JLINK_WriteReg(R3, 0x00000000)  returns 0x00 (0000ms, 1346ms total)
T157C 001:910 JLINK_WriteReg(R4, 0x00000000)  returns 0x00 (0000ms, 1346ms total)
T157C 001:910 JLINK_WriteReg(R5, 0x00000000)  returns 0x00 (0000ms, 1346ms total)
T157C 001:910 JLINK_WriteReg(R6, 0x00000000)  returns 0x00 (0000ms, 1346ms total)
T157C 001:910 JLINK_WriteReg(R7, 0x00000000)  returns 0x00 (0000ms, 1346ms total)
T157C 001:910 JLINK_WriteReg(R8, 0x00000000)  returns 0x00 (0000ms, 1346ms total)
T157C 001:910 JLINK_WriteReg(R9, 0x20000160)  returns 0x00 (0000ms, 1346ms total)
T157C 001:910 JLINK_WriteReg(R10, 0x00000000)  returns 0x00 (0000ms, 1346ms total)
T157C 001:910 JLINK_WriteReg(R11, 0x00000000)  returns 0x00 (0000ms, 1346ms total)
T157C 001:910 JLINK_WriteReg(R12, 0x00000000)  returns 0x00 (0000ms, 1346ms total)
T157C 001:910 JLINK_WriteReg(R13, 0x20000800)  returns 0x00 (0000ms, 1346ms total)
T157C 001:910 JLINK_WriteReg(R14, 0x20000001)  returns 0x00 (0000ms, 1346ms total)
T157C 001:910 JLINK_WriteReg(R15, 0x200000F4)  returns 0x00 (0000ms, 1346ms total)
T157C 001:910 JLINK_WriteReg(XPSR, 0x01000000)  returns 0x00 (0000ms, 1346ms total)
T157C 001:910 JLINK_WriteReg(MSP, 0x20000800)  returns 0x00 (0000ms, 1346ms total)
T157C 001:910 JLINK_WriteReg(PSP, 0x20000800)  returns 0x00 (0000ms, 1346ms total)
T157C 001:910 JLINK_WriteReg(CFBP, 0x00000000)  returns 0x00 (0000ms, 1346ms total)
T157C 001:910 JLINK_SetBPEx(Addr = 0x20000000, Type = 0xFFFFFFF2)  returns 0x0000000B (0000ms, 1346ms total)
T157C 001:910 JLINK_Go() -- CPU_WriteMem(4 bytes @ 0xE0002008) -- CPU_WriteMem(4 bytes @ 0xE000200C) -- CPU_WriteMem(4 bytes @ 0xE0002010) -- CPU_WriteMem(4 bytes @ 0xE0002014) -- CPU_WriteMem(4 bytes @ 0xE0002018) -- CPU_WriteMem(4 bytes @ 0xE000201C) (0005ms, 1346ms total)
T157C 001:915 JLINK_IsHalted()  returns FALSE (0001ms, 1351ms total)
T157C 001:967 JLINK_IsHalted() -- CPU_ReadMem(2 bytes @ 0x20000000)  returns TRUE (0006ms, 1351ms total)
T157C 001:973 JLINK_ReadReg(R15)  returns 0x20000000 (0000ms, 1351ms total)
T157C 001:973 JLINK_ClrBPEx(BPHandle = 0x0000000B)  returns 0x00 (0000ms, 1351ms total)
T157C 001:973 JLINK_ReadReg(R0)  returns 0x00000000 (0000ms, 1351ms total)
T157C 001:974 JLINK_WriteMem(0x20000164, 0x0400 Bytes, ...) -- Data:  80 F8 9D F8 1B 00 9D F8 1A 10 40 EA 01 20 0F FA ... -- CPU_WriteMem(1024 bytes @ 0x20000164)  returns 0x400 (0006ms, 1351ms total)
T157C 001:980 JLINK_WriteReg(R0, 0x08001C00)  returns 0x00 (0000ms, 1357ms total)
T157C 001:980 JLINK_WriteReg(R1, 0x00000400)  returns 0x00 (0000ms, 1357ms total)
T157C 001:980 JLINK_WriteReg(R2, 0x20000164)  returns 0x00 (0000ms, 1357ms total)
T157C 001:980 JLINK_WriteReg(R3, 0x00000000)  returns 0x00 (0000ms, 1357ms total)
T157C 001:980 JLINK_WriteReg(R4, 0x00000000)  returns 0x00 (0001ms, 1357ms total)
T157C 001:981 JLINK_WriteReg(R5, 0x00000000)  returns 0x00 (0000ms, 1358ms total)
T157C 001:981 JLINK_WriteReg(R6, 0x00000000)  returns 0x00 (0000ms, 1358ms total)
T157C 001:981 JLINK_WriteReg(R7, 0x00000000)  returns 0x00 (0000ms, 1358ms total)
T157C 001:981 JLINK_WriteReg(R8, 0x00000000)  returns 0x00 (0000ms, 1358ms total)
T157C 001:981 JLINK_WriteReg(R9, 0x20000160)  returns 0x00 (0000ms, 1358ms total)
T157C 001:981 JLINK_WriteReg(R10, 0x00000000)  returns 0x00 (0000ms, 1358ms total)
T157C 001:981 JLINK_WriteReg(R11, 0x00000000)  returns 0x00 (0000ms, 1358ms total)
T157C 001:981 JLINK_WriteReg(R12, 0x00000000)  returns 0x00 (0000ms, 1358ms total)
T157C 001:981 JLINK_WriteReg(R13, 0x20000800)  returns 0x00 (0000ms, 1358ms total)
T157C 001:981 JLINK_WriteReg(R14, 0x20000001)  returns 0x00 (0000ms, 1358ms total)
T157C 001:981 JLINK_WriteReg(R15, 0x200000F4)  returns 0x00 (0000ms, 1358ms total)
T157C 001:981 JLINK_WriteReg(XPSR, 0x01000000)  returns 0x00 (0000ms, 1358ms total)
T157C 001:981 JLINK_WriteReg(MSP, 0x20000800)  returns 0x00 (0000ms, 1358ms total)
T157C 001:981 JLINK_WriteReg(PSP, 0x20000800)  returns 0x00 (0000ms, 1358ms total)
T157C 001:981 JLINK_WriteReg(CFBP, 0x00000000)  returns 0x00 (0000ms, 1358ms total)
T157C 001:981 JLINK_SetBPEx(Addr = 0x20000000, Type = 0xFFFFFFF2)  returns 0x0000000C (0000ms, 1358ms total)
T157C 001:981 JLINK_Go() -- CPU_WriteMem(4 bytes @ 0xE0002008) -- CPU_WriteMem(4 bytes @ 0xE000200C) -- CPU_WriteMem(4 bytes @ 0xE0002010) -- CPU_WriteMem(4 bytes @ 0xE0002014) -- CPU_WriteMem(4 bytes @ 0xE0002018) -- CPU_WriteMem(4 bytes @ 0xE000201C) (0006ms, 1358ms total)
T157C 001:987 JLINK_IsHalted()  returns FALSE (0000ms, 1364ms total)
T157C 002:038 JLINK_IsHalted() -- CPU_ReadMem(2 bytes @ 0x20000000)  returns TRUE (0005ms, 1364ms total)
T157C 002:043 JLINK_ReadReg(R15)  returns 0x20000000 (0001ms, 1364ms total)
T157C 002:044 JLINK_ClrBPEx(BPHandle = 0x0000000C)  returns 0x00 (0000ms, 1365ms total)
T157C 002:044 JLINK_ReadReg(R0)  returns 0x00000000 (0000ms, 1365ms total)
T157C 002:044 JLINK_WriteMem(0x20000164, 0x0400 Bytes, ...) -- Data:  BD E8 F0 81 40 46 FF F7 CC FF FF F7 A5 FF 18 B9 ... -- CPU_WriteMem(1024 bytes @ 0x20000164)  returns 0x400 (0007ms, 1365ms total)
T157C 002:051 JLINK_WriteReg(R0, 0x08002000)  returns 0x00 (0000ms, 1372ms total)
T157C 002:051 JLINK_WriteReg(R1, 0x00000400)  returns 0x00 (0000ms, 1372ms total)
T157C 002:051 JLINK_WriteReg(R2, 0x20000164)  returns 0x00 (0000ms, 1372ms total)
T157C 002:051 JLINK_WriteReg(R3, 0x00000000)  returns 0x00 (0000ms, 1372ms total)
T157C 002:051 JLINK_WriteReg(R4, 0x00000000)  returns 0x00 (0000ms, 1372ms total)
T157C 002:051 JLINK_WriteReg(R5, 0x00000000)  returns 0x00 (0000ms, 1372ms total)
T157C 002:051 JLINK_WriteReg(R6, 0x00000000)  returns 0x00 (0000ms, 1372ms total)
T157C 002:051 JLINK_WriteReg(R7, 0x00000000)  returns 0x00 (0000ms, 1372ms total)
T157C 002:051 JLINK_WriteReg(R8, 0x00000000)  returns 0x00 (0000ms, 1372ms total)
T157C 002:051 JLINK_WriteReg(R9, 0x20000160)  returns 0x00 (0000ms, 1372ms total)
T157C 002:051 JLINK_WriteReg(R10, 0x00000000)  returns 0x00 (0001ms, 1372ms total)
T157C 002:052 JLINK_WriteReg(R11, 0x00000000)  returns 0x00 (0000ms, 1373ms total)
T157C 002:052 JLINK_WriteReg(R12, 0x00000000)  returns 0x00 (0000ms, 1373ms total)
T157C 002:052 JLINK_WriteReg(R13, 0x20000800)  returns 0x00 (0000ms, 1373ms total)
T157C 002:052 JLINK_WriteReg(R14, 0x20000001)  returns 0x00 (0000ms, 1373ms total)
T157C 002:052 JLINK_WriteReg(R15, 0x200000F4)  returns 0x00 (0000ms, 1373ms total)
T157C 002:052 JLINK_WriteReg(XPSR, 0x01000000)  returns 0x00 (0000ms, 1373ms total)
T157C 002:052 JLINK_WriteReg(MSP, 0x20000800)  returns 0x00 (0000ms, 1373ms total)
T157C 002:052 JLINK_WriteReg(PSP, 0x20000800)  returns 0x00 (0000ms, 1373ms total)
T157C 002:052 JLINK_WriteReg(CFBP, 0x00000000)  returns 0x00 (0000ms, 1373ms total)
T157C 002:052 JLINK_SetBPEx(Addr = 0x20000000, Type = 0xFFFFFFF2)  returns 0x0000000D (0000ms, 1373ms total)
T157C 002:052 JLINK_Go() -- CPU_WriteMem(4 bytes @ 0xE0002008) -- CPU_WriteMem(4 bytes @ 0xE000200C) -- CPU_WriteMem(4 bytes @ 0xE0002010) -- CPU_WriteMem(4 bytes @ 0xE0002014) -- CPU_WriteMem(4 bytes @ 0xE0002018) -- CPU_WriteMem(4 bytes @ 0xE000201C) (0005ms, 1373ms total)
T157C 002:057 JLINK_IsHalted()  returns FALSE (0001ms, 1378ms total)
T157C 002:109 JLINK_IsHalted() -- CPU_ReadMem(2 bytes @ 0x20000000)  returns TRUE (0005ms, 1378ms total)
T157C 002:114 JLINK_ReadReg(R15)  returns 0x20000000 (0000ms, 1378ms total)
T157C 002:114 JLINK_ClrBPEx(BPHandle = 0x0000000D)  returns 0x00 (0001ms, 1378ms total)
T157C 002:115 JLINK_ReadReg(R0)  returns 0x00000000 (0000ms, 1379ms total)
T157C 002:116 JLINK_WriteMem(0x20000164, 0x0400 Bytes, ...) -- Data:  36 FF FF F7 B3 FE 78 1C C0 B2 FF F7 5A FF FF F7 ... -- CPU_WriteMem(1024 bytes @ 0x20000164)  returns 0x400 (0007ms, 1379ms total)
T157C 002:123 JLINK_WriteReg(R0, 0x08002400)  returns 0x00 (0000ms, 1386ms total)
T157C 002:123 JLINK_WriteReg(R1, 0x00000400)  returns 0x00 (0000ms, 1386ms total)
T157C 002:123 JLINK_WriteReg(R2, 0x20000164)  returns 0x00 (0000ms, 1386ms total)
T157C 002:123 JLINK_WriteReg(R3, 0x00000000)  returns 0x00 (0000ms, 1386ms total)
T157C 002:123 JLINK_WriteReg(R4, 0x00000000)  returns 0x00 (0000ms, 1386ms total)
T157C 002:123 JLINK_WriteReg(R5, 0x00000000)  returns 0x00 (0000ms, 1386ms total)
T157C 002:123 JLINK_WriteReg(R6, 0x00000000)  returns 0x00 (0000ms, 1386ms total)
T157C 002:123 JLINK_WriteReg(R7, 0x00000000)  returns 0x00 (0000ms, 1386ms total)
T157C 002:123 JLINK_WriteReg(R8, 0x00000000)  returns 0x00 (0000ms, 1386ms total)
T157C 002:123 JLINK_WriteReg(R9, 0x20000160)  returns 0x00 (0000ms, 1386ms total)
T157C 002:123 JLINK_WriteReg(R10, 0x00000000)  returns 0x00 (0000ms, 1386ms total)
T157C 002:123 JLINK_WriteReg(R11, 0x00000000)  returns 0x00 (0000ms, 1386ms total)
T157C 002:123 JLINK_WriteReg(R12, 0x00000000)  returns 0x00 (0000ms, 1386ms total)
T157C 002:123 JLINK_WriteReg(R13, 0x20000800)  returns 0x00 (0000ms, 1386ms total)
T157C 002:123 JLINK_WriteReg(R14, 0x20000001)  returns 0x00 (0000ms, 1386ms total)
T157C 002:123 JLINK_WriteReg(R15, 0x200000F4)  returns 0x00 (0000ms, 1386ms total)
T157C 002:123 JLINK_WriteReg(XPSR, 0x01000000)  returns 0x00 (0001ms, 1386ms total)
T157C 002:124 JLINK_WriteReg(MSP, 0x20000800)  returns 0x00 (0000ms, 1387ms total)
T157C 002:124 JLINK_WriteReg(PSP, 0x20000800)  returns 0x00 (0000ms, 1387ms total)
T157C 002:124 JLINK_WriteReg(CFBP, 0x00000000)  returns 0x00 (0000ms, 1387ms total)
T157C 002:124 JLINK_SetBPEx(Addr = 0x20000000, Type = 0xFFFFFFF2)  returns 0x0000000E (0000ms, 1387ms total)
T157C 002:124 JLINK_Go() -- CPU_WriteMem(4 bytes @ 0xE0002008) -- CPU_WriteMem(4 bytes @ 0xE000200C) -- CPU_WriteMem(4 bytes @ 0xE0002010) -- CPU_WriteMem(4 bytes @ 0xE0002014) -- CPU_WriteMem(4 bytes @ 0xE0002018) -- CPU_WriteMem(4 bytes @ 0xE000201C) (0006ms, 1387ms total)
T157C 002:130 JLINK_IsHalted()  returns FALSE (0000ms, 1393ms total)
T157C 002:181 JLINK_IsHalted() -- CPU_ReadMem(2 bytes @ 0x20000000)  returns TRUE (0006ms, 1393ms total)
T157C 002:187 JLINK_ReadReg(R15)  returns 0x20000000 (0000ms, 1393ms total)
T157C 002:187 JLINK_ClrBPEx(BPHandle = 0x0000000E)  returns 0x00 (0000ms, 1393ms total)
T157C 002:187 JLINK_ReadReg(R0)  returns 0x00000000 (0000ms, 1393ms total)
T157C 002:188 JLINK_WriteMem(0x20000164, 0x0400 Bytes, ...) -- Data:  08 60 FD F7 55 FF BA 48 D0 F8 08 0C 10 F4 00 4F ... -- CPU_WriteMem(1024 bytes @ 0x20000164)  returns 0x400 (0006ms, 1393ms total)
T157C 002:194 JLINK_WriteReg(R0, 0x08002800)  returns 0x00 (0000ms, 1399ms total)
T157C 002:194 JLINK_WriteReg(R1, 0x00000400)  returns 0x00 (0000ms, 1399ms total)
T157C 002:194 JLINK_WriteReg(R2, 0x20000164)  returns 0x00 (0000ms, 1399ms total)
T157C 002:194 JLINK_WriteReg(R3, 0x00000000)  returns 0x00 (0000ms, 1399ms total)
T157C 002:194 JLINK_WriteReg(R4, 0x00000000)  returns 0x00 (0001ms, 1399ms total)
T157C 002:195 JLINK_WriteReg(R5, 0x00000000)  returns 0x00 (0000ms, 1400ms total)
T157C 002:195 JLINK_WriteReg(R6, 0x00000000)  returns 0x00 (0000ms, 1400ms total)
T157C 002:195 JLINK_WriteReg(R7, 0x00000000)  returns 0x00 (0000ms, 1400ms total)
T157C 002:195 JLINK_WriteReg(R8, 0x00000000)  returns 0x00 (0000ms, 1400ms total)
T157C 002:195 JLINK_WriteReg(R9, 0x20000160)  returns 0x00 (0000ms, 1400ms total)
T157C 002:195 JLINK_WriteReg(R10, 0x00000000)  returns 0x00 (0000ms, 1400ms total)
T157C 002:195 JLINK_WriteReg(R11, 0x00000000)  returns 0x00 (0000ms, 1400ms total)
T157C 002:195 JLINK_WriteReg(R12, 0x00000000)  returns 0x00 (0000ms, 1400ms total)
T157C 002:195 JLINK_WriteReg(R13, 0x20000800)  returns 0x00 (0000ms, 1400ms total)
T157C 002:195 JLINK_WriteReg(R14, 0x20000001)  returns 0x00 (0000ms, 1400ms total)
T157C 002:195 JLINK_WriteReg(R15, 0x200000F4)  returns 0x00 (0000ms, 1400ms total)
T157C 002:195 JLINK_WriteReg(XPSR, 0x01000000)  returns 0x00 (0000ms, 1400ms total)
T157C 002:195 JLINK_WriteReg(MSP, 0x20000800)  returns 0x00 (0000ms, 1400ms total)
T157C 002:195 JLINK_WriteReg(PSP, 0x20000800)  returns 0x00 (0000ms, 1400ms total)
T157C 002:195 JLINK_WriteReg(CFBP, 0x00000000)  returns 0x00 (0000ms, 1400ms total)
T157C 002:195 JLINK_SetBPEx(Addr = 0x20000000, Type = 0xFFFFFFF2)  returns 0x0000000F (0000ms, 1400ms total)
T157C 002:195 JLINK_Go() -- CPU_WriteMem(4 bytes @ 0xE0002008) -- CPU_WriteMem(4 bytes @ 0xE000200C) -- CPU_WriteMem(4 bytes @ 0xE0002010) -- CPU_WriteMem(4 bytes @ 0xE0002014) -- CPU_WriteMem(4 bytes @ 0xE0002018) -- CPU_WriteMem(4 bytes @ 0xE000201C) (0006ms, 1400ms total)
T157C 002:201 JLINK_IsHalted()  returns FALSE (0000ms, 1406ms total)
T157C 002:252 JLINK_IsHalted() -- CPU_ReadMem(2 bytes @ 0x20000000)  returns TRUE (0006ms, 1406ms total)
T157C 002:258 JLINK_ReadReg(R15)  returns 0x20000000 (0000ms, 1406ms total)
T157C 002:258 JLINK_ClrBPEx(BPHandle = 0x0000000F)  returns 0x00 (0000ms, 1406ms total)
T157C 002:258 JLINK_ReadReg(R0)  returns 0x00000000 (0000ms, 1406ms total)
T157C 002:260 JLINK_WriteMem(0x20000164, 0x0400 Bytes, ...) -- Data:  BA F1 00 0F 06 D0 80 48 80 F8 00 A0 51 46 7F A0 ... -- CPU_WriteMem(1024 bytes @ 0x20000164)  returns 0x400 (0007ms, 1406ms total)
T157C 002:267 JLINK_WriteReg(R0, 0x08002C00)  returns 0x00 (0000ms, 1413ms total)
T157C 002:267 JLINK_WriteReg(R1, 0x00000400)  returns 0x00 (0000ms, 1413ms total)
T157C 002:267 JLINK_WriteReg(R2, 0x20000164)  returns 0x00 (0000ms, 1413ms total)
T157C 002:267 JLINK_WriteReg(R3, 0x00000000)  returns 0x00 (0000ms, 1413ms total)
T157C 002:267 JLINK_WriteReg(R4, 0x00000000)  returns 0x00 (0000ms, 1413ms total)
T157C 002:267 JLINK_WriteReg(R5, 0x00000000)  returns 0x00 (0000ms, 1413ms total)
T157C 002:267 JLINK_WriteReg(R6, 0x00000000)  returns 0x00 (0000ms, 1413ms total)
T157C 002:267 JLINK_WriteReg(R7, 0x00000000)  returns 0x00 (0000ms, 1413ms total)
T157C 002:267 JLINK_WriteReg(R8, 0x00000000)  returns 0x00 (0000ms, 1413ms total)
T157C 002:267 JLINK_WriteReg(R9, 0x20000160)  returns 0x00 (0000ms, 1413ms total)
T157C 002:267 JLINK_WriteReg(R10, 0x00000000)  returns 0x00 (0000ms, 1413ms total)
T157C 002:267 JLINK_WriteReg(R11, 0x00000000)  returns 0x00 (0000ms, 1413ms total)
T157C 002:267 JLINK_WriteReg(R12, 0x00000000)  returns 0x00 (0000ms, 1413ms total)
T157C 002:267 JLINK_WriteReg(R13, 0x20000800)  returns 0x00 (0000ms, 1413ms total)
T157C 002:267 JLINK_WriteReg(R14, 0x20000001)  returns 0x00 (0000ms, 1413ms total)
T157C 002:267 JLINK_WriteReg(R15, 0x200000F4)  returns 0x00 (0000ms, 1413ms total)
T157C 002:267 JLINK_WriteReg(XPSR, 0x01000000)  returns 0x00 (0000ms, 1413ms total)
T157C 002:267 JLINK_WriteReg(MSP, 0x20000800)  returns 0x00 (0000ms, 1413ms total)
T157C 002:267 JLINK_WriteReg(PSP, 0x20000800)  returns 0x00 (0000ms, 1413ms total)
T157C 002:267 JLINK_WriteReg(CFBP, 0x00000000)  returns 0x00 (0000ms, 1413ms total)
T157C 002:267 JLINK_SetBPEx(Addr = 0x20000000, Type = 0xFFFFFFF2)  returns 0x00000010 (0000ms, 1413ms total)
T157C 002:267 JLINK_Go() -- CPU_WriteMem(4 bytes @ 0xE0002008) -- CPU_WriteMem(4 bytes @ 0xE000200C) -- CPU_WriteMem(4 bytes @ 0xE0002010) -- CPU_WriteMem(4 bytes @ 0xE0002014) -- CPU_WriteMem(4 bytes @ 0xE0002018) -- CPU_WriteMem(4 bytes @ 0xE000201C) (0006ms, 1413ms total)
T157C 002:273 JLINK_IsHalted()  returns FALSE (0000ms, 1419ms total)
T157C 002:324 JLINK_IsHalted() -- CPU_ReadMem(2 bytes @ 0x20000000)  returns TRUE (0006ms, 1419ms total)
T157C 002:330 JLINK_ReadReg(R15)  returns 0x20000000 (0000ms, 1419ms total)
T157C 002:330 JLINK_ClrBPEx(BPHandle = 0x00000010)  returns 0x00 (0000ms, 1419ms total)
T157C 002:330 JLINK_ReadReg(R0)  returns 0x00000000 (0000ms, 1419ms total)
T157C 002:331 JLINK_WriteMem(0x20000164, 0x0400 Bytes, ...) -- Data:  04 F0 FA FF 13 D2 24 48 00 78 50 B9 23 49 B0 68 ... -- CPU_WriteMem(1024 bytes @ 0x20000164)  returns 0x400 (0007ms, 1419ms total)
T157C 002:338 JLINK_WriteReg(R0, 0x08003000)  returns 0x00 (0000ms, 1426ms total)
T157C 002:338 JLINK_WriteReg(R1, 0x00000400)  returns 0x00 (0000ms, 1426ms total)
T157C 002:338 JLINK_WriteReg(R2, 0x20000164)  returns 0x00 (0000ms, 1426ms total)
T157C 002:338 JLINK_WriteReg(R3, 0x00000000)  returns 0x00 (0000ms, 1426ms total)
T157C 002:338 JLINK_WriteReg(R4, 0x00000000)  returns 0x00 (0000ms, 1426ms total)
T157C 002:338 JLINK_WriteReg(R5, 0x00000000)  returns 0x00 (0000ms, 1426ms total)
T157C 002:338 JLINK_WriteReg(R6, 0x00000000)  returns 0x00 (0000ms, 1426ms total)
T157C 002:338 JLINK_WriteReg(R7, 0x00000000)  returns 0x00 (0000ms, 1426ms total)
T157C 002:338 JLINK_WriteReg(R8, 0x00000000)  returns 0x00 (0000ms, 1426ms total)
T157C 002:338 JLINK_WriteReg(R9, 0x20000160)  returns 0x00 (0000ms, 1426ms total)
T157C 002:338 JLINK_WriteReg(R10, 0x00000000)  returns 0x00 (0000ms, 1426ms total)
T157C 002:338 JLINK_WriteReg(R11, 0x00000000)  returns 0x00 (0000ms, 1426ms total)
T157C 002:338 JLINK_WriteReg(R12, 0x00000000)  returns 0x00 (0000ms, 1426ms total)
T157C 002:338 JLINK_WriteReg(R13, 0x20000800)  returns 0x00 (0000ms, 1426ms total)
T157C 002:338 JLINK_WriteReg(R14, 0x20000001)  returns 0x00 (0000ms, 1426ms total)
T157C 002:338 JLINK_WriteReg(R15, 0x200000F4)  returns 0x00 (0000ms, 1426ms total)
T157C 002:338 JLINK_WriteReg(XPSR, 0x01000000)  returns 0x00 (0000ms, 1426ms total)
T157C 002:338 JLINK_WriteReg(MSP, 0x20000800)  returns 0x00 (0000ms, 1426ms total)
T157C 002:338 JLINK_WriteReg(PSP, 0x20000800)  returns 0x00 (0000ms, 1426ms total)
T157C 002:338 JLINK_WriteReg(CFBP, 0x00000000)  returns 0x00 (0000ms, 1426ms total)
T157C 002:338 JLINK_SetBPEx(Addr = 0x20000000, Type = 0xFFFFFFF2)  returns 0x00000011 (0000ms, 1426ms total)
